Sample in Buffer,Sample in Window,TRIGGER,design_1_i/system_ila_0/inst/probe0_1,design_1_i/system_ila_0/inst/probe1_1[15:0],design_1_i/system_ila_0/inst/probe2_1[15:0],design_1_i/system_ila_0/inst/probe3_1[15:0]
Radix - UNSIGNED,UNSIGNED,UNSIGNED,HEX,SIGNED,HEX,HEX
0,0,0,1,-16053,0000,c197
1,1,0,1,-16053,0000,c197
2,2,0,1,-16053,0000,c197
3,3,0,1,-16053,0000,c197
4,4,0,1,-16053,0000,c197
5,5,0,1,-16053,0000,c197
6,6,0,1,-16053,0000,c197
7,7,0,1,-16054,0000,c197
8,8,0,1,-16054,0000,c197
9,9,0,1,-16054,0000,c197
10,10,0,1,-16054,0000,c197
11,11,0,1,-16054,0000,c197
12,12,0,1,-16054,0000,c197
13,13,0,1,-16054,0000,c197
14,14,0,1,-16054,0000,c197
15,15,0,1,-16054,0000,c197
16,16,0,1,-16054,0000,c197
17,17,0,1,-16054,0000,c197
18,18,0,1,-16054,0000,c197
19,19,0,1,-16054,0000,c197
20,20,0,1,-16054,0000,c197
21,21,0,1,-16054,0000,c197
22,22,0,1,-16055,0000,c196
23,23,0,1,-16055,0000,c196
24,24,0,1,-16055,0000,c196
25,25,0,1,-16055,0000,c196
26,26,0,1,-16055,0000,c196
27,27,0,1,-16055,0000,c196
28,28,0,1,-16055,0000,c196
29,29,0,1,-16055,0000,c196
30,30,0,1,-16055,0000,c196
31,31,0,1,-16055,0000,c196
32,32,0,1,-16055,0000,c196
33,33,0,1,-16055,0000,c196
34,34,0,1,-16055,0000,c196
35,35,0,1,-16055,0000,c196
36,36,0,1,-16055,0000,c196
37,37,0,1,-16055,0000,c196
38,38,0,1,-16055,0000,c196
39,39,0,1,-16055,0000,c196
40,40,0,1,-16056,0000,c196
41,41,0,1,-16056,0000,c196
42,42,0,1,-16056,0000,c196
43,43,0,1,-16056,0000,c195
44,44,0,1,-16056,0000,c195
45,45,0,1,-16056,0000,c195
46,46,0,1,-16056,0000,c195
47,47,0,1,-16056,0000,c195
48,48,0,1,-16056,0000,c195
49,49,0,1,-16056,0000,c195
50,50,0,1,-16056,0000,c195
51,51,0,1,-16056,0000,c195
52,52,0,1,-16056,0000,c195
53,53,0,1,-16056,0000,c195
54,54,0,1,-16056,0000,c195
55,55,0,1,-16057,0000,c195
56,56,0,1,-16057,0000,c195
57,57,0,1,-16057,0000,c195
58,58,0,1,-16057,0000,c195
59,59,0,1,-16057,0000,c195
60,60,0,1,-16057,0000,c195
61,61,0,1,-16057,0000,c194
62,62,0,1,-16057,0000,c194
63,63,0,1,-16057,0000,c194
64,64,0,1,-16057,0000,c194
65,65,0,1,-16057,0000,c194
66,66,0,1,-16057,0000,c194
67,67,0,1,-16057,0000,c194
68,68,0,1,-16057,0000,c194
69,69,0,1,-16057,0000,c194
70,70,0,1,-16058,0000,c194
71,71,0,1,-16058,0000,c194
72,72,0,1,-16058,0000,c194
73,73,0,1,-16058,0000,c194
74,74,0,1,-16058,0000,c194
75,75,0,1,-16058,0000,c194
76,76,0,1,-16058,0000,c194
77,77,0,1,-16058,0000,c194
78,78,0,1,-16058,0000,c194
79,79,0,1,-16058,0000,c194
80,80,0,1,-16058,0000,c194
81,81,0,1,-16058,0000,c194
82,82,0,1,-16058,0000,c194
83,83,0,1,-16058,0000,c194
84,84,0,1,-16058,0000,c194
85,85,0,1,-16058,0000,c194
86,86,0,1,-16058,0000,c194
87,87,0,1,-16058,0000,c194
88,88,0,1,-16059,0000,c193
89,89,0,1,-16059,0000,c193
90,90,0,1,-16059,0000,c193
91,91,0,1,-16059,0000,c193
92,92,0,1,-16059,0000,c193
93,93,0,1,-16059,0000,c193
94,94,0,1,-16059,0000,c193
95,95,0,1,-16059,0000,c193
96,96,0,1,-16059,0000,c193
97,97,0,1,-16059,0000,c193
98,98,0,1,-16059,0000,c193
99,99,0,1,-16059,0000,c193
100,100,0,1,-16059,0000,c193
101,101,0,1,-16059,0000,c193
102,102,0,1,-16059,0000,c193
103,103,0,1,-16060,0000,c193
104,104,0,1,-16060,0000,c193
105,105,0,1,-16060,0000,c193
106,106,0,1,-16060,0000,c193
107,107,0,1,-16060,0000,c193
108,108,0,1,-16060,0000,c193
109,109,0,1,-16060,0000,c192
110,110,0,1,-16060,0000,c192
111,111,0,1,-16060,0000,c192
112,112,0,1,-16060,0000,c192
113,113,0,1,-16060,0000,c192
114,114,0,1,-16060,0000,c192
115,115,0,1,-16060,0000,c192
116,116,0,1,-16060,0000,c192
117,117,0,1,-16060,0000,c192
118,118,0,1,-16061,0000,c192
119,119,0,1,-16061,0000,c192
120,120,0,1,-16061,0000,c192
121,121,0,1,-16061,0000,c192
122,122,0,1,-16061,0000,c192
123,123,0,1,-16061,0000,c192
124,124,0,1,-16061,0000,c191
125,125,0,1,-16061,0000,c191
126,126,0,1,-16061,0000,c191
127,127,0,1,-16061,0000,c191
128,128,0,1,-16061,0000,c191
129,129,0,1,-16061,0000,c191
130,130,0,1,-16061,0000,c191
131,131,0,1,-16061,0000,c191
132,132,0,1,-16061,0000,c191
133,133,0,1,-16061,0000,c191
134,134,0,1,-16061,0000,c191
135,135,0,1,-16061,0000,c191
136,136,0,1,-16062,0000,c191
137,137,0,1,-16062,0000,c191
138,138,0,1,-16062,0000,c191
139,139,0,1,-16062,0000,c191
140,140,0,1,-16062,0000,c191
141,141,0,1,-16062,0000,c191
142,142,0,1,-16062,0000,c191
143,143,0,1,-16062,0000,c191
144,144,0,1,-16062,0000,c191
145,145,0,1,-16062,0000,c191
146,146,0,1,-16062,0000,c191
147,147,0,1,-16062,0000,c191
148,148,0,1,-16062,0000,c191
149,149,0,1,-16062,0000,c191
150,150,0,1,-16062,0000,c191
151,151,0,1,-16063,0000,c190
152,152,0,1,-16063,0000,c190
153,153,0,1,-16063,0000,c190
154,154,0,1,-16063,0000,c190
155,155,0,1,-16063,0000,c190
156,156,0,1,-16063,0000,c190
157,157,0,1,-16063,0000,c190
158,158,0,1,-16063,0000,c190
159,159,0,1,-16063,0000,c190
160,160,0,1,-16063,0000,c190
161,161,0,1,-16063,0000,c190
162,162,0,1,-16063,0000,c190
163,163,0,1,-16063,0000,c190
164,164,0,1,-16063,0000,c190
165,165,0,1,-16063,0000,c190
166,166,0,1,-16064,0000,c190
167,167,0,1,-16064,0000,c190
168,168,0,1,-16064,0000,c190
169,169,0,1,-16064,0000,c190
170,170,0,1,-16064,0000,c190
171,171,0,1,-16064,0000,c190
172,172,0,1,-16064,0000,c18f
173,173,0,1,-16064,0000,c18f
174,174,0,1,-16064,0000,c18f
175,175,0,1,-16064,0000,c18f
176,176,0,1,-16064,0000,c18f
177,177,0,1,-16064,0000,c18f
178,178,0,1,-16064,0000,c18f
179,179,0,1,-16064,0000,c18f
180,180,0,1,-16064,0000,c18f
181,181,0,1,-16064,0000,c18f
182,182,0,1,-16064,0000,c18f
183,183,0,1,-16064,0000,c18f
184,184,0,1,-16065,0000,c18f
185,185,0,1,-16065,0000,c18f
186,186,0,1,-16065,0000,c18f
187,187,0,1,-16065,0000,c18e
188,188,0,1,-16065,0000,c18e
189,189,0,1,-16065,0000,c18e
190,190,0,1,-16065,0000,c18e
191,191,0,1,-16065,0000,c18e
192,192,0,1,-16065,0000,c18e
193,193,0,1,-16065,0000,c18e
194,194,0,1,-16065,0000,c18e
195,195,0,1,-16065,0000,c18e
196,196,0,1,-16065,0000,c18e
197,197,0,1,-16065,0000,c18e
198,198,0,1,-16065,0000,c18e
199,199,0,1,-16066,0000,c18e
200,200,0,1,-16066,0000,c18e
201,201,0,1,-16066,0000,c18e
202,202,0,1,-16066,0000,c18e
203,203,0,1,-16066,0000,c18e
204,204,0,1,-16066,0000,c18e
205,205,0,1,-16066,0000,c18e
206,206,0,1,-16066,0000,c18e
207,207,0,1,-16066,0000,c18e
208,208,0,1,-16066,0000,c18e
209,209,0,1,-16066,0000,c18e
210,210,0,1,-16066,0000,c18e
211,211,0,1,-16066,0000,c18e
212,212,0,1,-16066,0000,c18e
213,213,0,1,-16066,0000,c18e
214,214,0,1,-16067,0000,c18e
215,215,0,1,-16067,0000,c18e
216,216,0,1,-16067,0000,c18e
217,217,0,1,-16067,0000,c18e
218,218,0,1,-16067,0000,c18e
219,219,0,1,-16067,0000,c18e
220,220,0,1,-16067,0000,c18d
221,221,0,1,-16067,0000,c18d
222,222,0,1,-16067,0000,c18d
223,223,0,1,-16067,0000,c18d
224,224,0,1,-16067,0000,c18d
225,225,0,1,-16067,0000,c18d
226,226,0,1,-16067,0000,c18d
227,227,0,1,-16067,0000,c18d
228,228,0,1,-16067,0000,c18d
229,229,0,1,-16067,0000,c18d
230,230,0,1,-16067,0000,c18d
231,231,0,1,-16067,0000,c18d
232,232,0,1,-16068,0000,c18d
233,233,0,1,-16068,0000,c18d
234,234,0,1,-16068,0000,c18d
235,235,0,1,-16068,0000,c18d
236,236,0,1,-16068,0000,c18d
237,237,0,1,-16068,0000,c18d
238,238,0,1,-16068,0000,c18d
239,239,0,1,-16068,0000,c18d
240,240,0,1,-16068,0000,c18d
241,241,0,1,-16068,0000,c18d
242,242,0,1,-16068,0000,c18d
243,243,0,1,-16068,0000,c18d
244,244,0,1,-16068,0000,c18d
245,245,0,1,-16068,0000,c18d
246,246,0,1,-16068,0000,c18d
247,247,0,1,-16069,0000,c18c
248,248,0,1,-16069,0000,c18c
249,249,0,1,-16069,0000,c18c
250,250,0,1,-16069,0000,c18c
251,251,0,1,-16069,0000,c18c
252,252,0,1,-16069,0000,c18c
253,253,0,1,-16069,0000,c18c
254,254,0,1,-16069,0000,c18c
255,255,0,1,-16069,0000,c18c
256,256,0,1,-16069,0000,c18c
257,257,0,1,-16069,0000,c18c
258,258,0,1,-16069,0000,c18c
259,259,0,1,-16069,0000,c18c
260,260,0,1,-16069,0000,c18c
261,261,0,1,-16069,0000,c18c
262,262,0,1,-16070,0000,c18c
263,263,0,1,-16070,0000,c18c
264,264,0,1,-16070,0000,c18c
265,265,0,1,-16070,0000,c18c
266,266,0,1,-16070,0000,c18c
267,267,0,1,-16070,0000,c18c
268,268,0,1,-16070,0000,c18b
269,269,0,1,-16070,0000,c18b
270,270,0,1,-16070,0000,c18b
271,271,0,1,-16070,0000,c18b
272,272,0,1,-16070,0000,c18b
273,273,0,1,-16070,0000,c18b
274,274,0,1,-16070,0000,c18b
275,275,0,1,-16070,0000,c18b
276,276,0,1,-16070,0000,c18b
277,277,0,1,-16070,0000,c18b
278,278,0,1,-16070,0000,c18b
279,279,0,1,-16070,0000,c18b
280,280,0,1,-16071,0000,c18b
281,281,0,1,-16071,0000,c18b
282,282,0,1,-16071,0000,c18b
283,283,0,1,-16071,0000,c18a
284,284,0,1,-16071,0000,c18a
285,285,0,1,-16071,0000,c18a
286,286,0,1,-16071,0000,c18a
287,287,0,1,-16071,0000,c18a
288,288,0,1,-16071,0000,c18a
289,289,0,1,-16071,0000,c18a
290,290,0,1,-16071,0000,c18a
291,291,0,1,-16071,0000,c18a
292,292,0,1,-16071,0000,c18a
293,293,0,1,-16071,0000,c18a
294,294,0,1,-16071,0000,c18a
295,295,0,1,-16072,0000,c18a
296,296,0,1,-16072,0000,c18a
297,297,0,1,-16072,0000,c18a
298,298,0,1,-16072,0000,c18a
299,299,0,1,-16072,0000,c18a
300,300,0,1,-16072,0000,c18a
301,301,0,1,-16072,0000,c18a
302,302,0,1,-16072,0000,c18a
303,303,0,1,-16072,0000,c18a
304,304,0,1,-16072,0000,c18a
305,305,0,1,-16072,0000,c18a
306,306,0,1,-16072,0000,c18a
307,307,0,1,-16072,0000,c18a
308,308,0,1,-16072,0000,c18a
309,309,0,1,-16072,0000,c18a
310,310,0,1,-16073,0000,c189
311,311,0,1,-16073,0000,c189
312,312,0,1,-16073,0000,c189
313,313,0,1,-16073,0000,c189
314,314,0,1,-16073,0000,c189
315,315,0,1,-16073,0000,c189
316,316,0,1,-16073,0000,c189
317,317,0,1,-16073,0000,c189
318,318,0,1,-16073,0000,c189
319,319,0,1,-16073,0000,c189
320,320,0,1,-16073,0000,c189
321,321,0,1,-16073,0000,c189
322,322,0,1,-16073,0000,c189
323,323,0,1,-16073,0000,c189
324,324,0,1,-16073,0000,c189
325,325,0,1,-16073,0000,c189
326,326,0,1,-16073,0000,c189
327,327,0,1,-16073,0000,c189
328,328,0,1,-16074,0000,c189
329,329,0,1,-16074,0000,c189
330,330,0,1,-16074,0000,c189
331,331,0,1,-16074,0000,c188
332,332,0,1,-16074,0000,c188
333,333,0,1,-16074,0000,c188
334,334,0,1,-16074,0000,c188
335,335,0,1,-16074,0000,c188
336,336,0,1,-16074,0000,c188
337,337,0,1,-16074,0000,c188
338,338,0,1,-16074,0000,c188
339,339,0,1,-16074,0000,c188
340,340,0,1,-16074,0000,c188
341,341,0,1,-16074,0000,c188
342,342,0,1,-16074,0000,c188
343,343,0,1,-16075,0000,c188
344,344,0,1,-16075,0000,c188
345,345,0,1,-16075,0000,c188
346,346,0,1,-16075,0000,c187
347,347,0,1,-16075,0000,c187
348,348,0,1,-16075,0000,c187
349,349,0,1,-16075,0000,c187
350,350,0,1,-16075,0000,c187
351,351,0,1,-16075,0000,c187
352,352,0,1,-16075,0000,c187
353,353,0,1,-16075,0000,c187
354,354,0,1,-16075,0000,c187
355,355,0,1,-16075,0000,c187
356,356,0,1,-16075,0000,c187
357,357,0,1,-16075,0000,c187
358,358,0,1,-16076,0000,c187
359,359,0,1,-16076,0000,c187
360,360,0,1,-16076,0000,c187
361,361,0,1,-16076,0000,c187
362,362,0,1,-16076,0000,c187
363,363,0,1,-16076,0000,c187
364,364,0,1,-16076,0000,c187
365,365,0,1,-16076,0000,c187
366,366,0,1,-16076,0000,c187
367,367,0,1,-16076,0000,c187
368,368,0,1,-16076,0000,c187
369,369,0,1,-16076,0000,c187
370,370,0,1,-16076,0000,c187
371,371,0,1,-16076,0000,c187
372,372,0,1,-16076,0000,c187
373,373,0,1,-16076,0000,c187
374,374,0,1,-16076,0000,c187
375,375,0,1,-16076,0000,c187
376,376,0,1,-16077,0000,c186
377,377,0,1,-16077,0000,c186
378,378,0,1,-16077,0000,c186
379,379,0,1,-16077,0000,c186
380,380,0,1,-16077,0000,c186
381,381,0,1,-16077,0000,c186
382,382,0,1,-16077,0000,c186
383,383,0,1,-16077,0000,c186
384,384,0,1,-16077,0000,c186
385,385,0,1,-16077,0000,c186
386,386,0,1,-16077,0000,c186
387,387,0,1,-16077,0000,c186
388,388,0,1,-16077,0000,c186
389,389,0,1,-16077,0000,c186
390,390,0,1,-16077,0000,c186
391,391,0,1,-16078,0000,c186
392,392,0,1,-16078,0000,c186
393,393,0,1,-16078,0000,c186
394,394,0,1,-16078,0000,c185
395,395,0,1,-16078,0000,c185
396,396,0,1,-16078,0000,c185
397,397,0,1,-16078,0000,c185
398,398,0,1,-16078,0000,c185
399,399,0,1,-16078,0000,c185
400,400,0,1,-16078,0000,c185
401,401,0,1,-16078,0000,c185
402,402,0,1,-16078,0000,c185
403,403,0,1,-16078,0000,c185
404,404,0,1,-16078,0000,c185
405,405,0,1,-16078,0000,c185
406,406,0,1,-16079,0000,c185
407,407,0,1,-16079,0000,c185
408,408,0,1,-16079,0000,c185
409,409,0,1,-16079,0000,c185
410,410,0,1,-16079,0000,c185
411,411,0,1,-16079,0000,c185
412,412,0,1,-16079,0000,c184
413,413,0,1,-16079,0000,c184
414,414,0,1,-16079,0000,c184
415,415,0,1,-16079,0000,c184
416,416,0,1,-16079,0000,c184
417,417,0,1,-16079,0000,c184
418,418,0,1,-16079,0000,c184
419,419,0,1,-16079,0000,c184
420,420,0,1,-16079,0000,c184
421,421,0,1,-16079,0000,c184
422,422,0,1,-16079,0000,c184
423,423,0,1,-16079,0000,c184
424,424,0,1,-16080,0000,c184
425,425,0,1,-16080,0000,c184
426,426,0,1,-16080,0000,c184
427,427,0,1,-16080,0000,c184
428,428,0,1,-16080,0000,c184
429,429,0,1,-16080,0000,c184
430,430,0,1,-16080,0000,c184
431,431,0,1,-16080,0000,c184
432,432,0,1,-16080,0000,c184
433,433,0,1,-16080,0000,c184
434,434,0,1,-16080,0000,c184
435,435,0,1,-16080,0000,c184
436,436,0,1,-16080,0000,c184
437,437,0,1,-16080,0000,c184
438,438,0,1,-16080,0000,c184
439,439,0,1,-16081,0000,c183
440,440,0,1,-16081,0000,c183
441,441,0,1,-16081,0000,c183
442,442,0,1,-16081,0000,c183
443,443,0,1,-16081,0000,c183
444,444,0,1,-16081,0000,c183
445,445,0,1,-16081,0000,c183
446,446,0,1,-16081,0000,c183
447,447,0,1,-16081,0000,c183
448,448,0,1,-16081,0000,c183
449,449,0,1,-16081,0000,c183
450,450,0,1,-16081,0000,c183
451,451,0,1,-16081,0000,c183
452,452,0,1,-16081,0000,c183
453,453,0,1,-16081,0000,c183
454,454,0,1,-16082,0000,c183
455,455,0,1,-16082,0000,c183
456,456,0,1,-16082,0000,c183
457,457,0,1,-16082,0000,c183
458,458,0,1,-16082,0000,c183
459,459,0,1,-16082,0000,c183
460,460,0,1,-16082,0000,c182
461,461,0,1,-16082,0000,c182
462,462,0,1,-16082,0000,c182
463,463,0,1,-16082,0000,c182
464,464,0,1,-16082,0000,c182
465,465,0,1,-16082,0000,c182
466,466,0,1,-16082,0000,c182
467,467,0,1,-16082,0000,c182
468,468,0,1,-16082,0000,c182
469,469,0,1,-16082,0000,c182
470,470,0,1,-16082,0000,c182
471,471,0,1,-16082,0000,c182
472,472,0,1,-16083,0000,c182
473,473,0,1,-16083,0000,c182
474,474,0,1,-16083,0000,c182
475,475,0,1,-16083,0000,c181
476,476,0,1,-16083,0000,c181
477,477,0,1,-16083,0000,c181
478,478,0,1,-16083,0000,c181
479,479,0,1,-16083,0000,c181
480,480,0,1,-16083,0000,c181
481,481,0,1,-16083,0000,c181
482,482,0,1,-16083,0000,c181
483,483,0,1,-16083,0000,c181
484,484,0,1,-16083,0000,c181
485,485,0,1,-16083,0000,c181
486,486,0,1,-16083,0000,c181
487,487,0,1,-16084,0000,c181
488,488,0,1,-16084,0000,c181
489,489,0,1,-16084,0000,c181
490,490,0,1,-16084,0000,c181
491,491,0,1,-16084,0000,c181
492,492,0,1,-16084,0000,c181
493,493,0,1,-16084,0000,c181
494,494,0,1,-16084,0000,c181
495,495,0,1,-16084,0000,c181
496,496,0,1,-16084,0000,c181
497,497,0,1,-16084,0000,c181
498,498,0,1,-16084,0000,c181
499,499,0,1,-16084,0000,c181
500,500,0,1,-16084,0000,c181
501,501,0,1,-16084,0000,c181
502,502,0,1,-16085,0000,c180
503,503,0,1,-16085,0000,c180
504,504,0,1,-16085,0000,c180
505,505,0,1,-16085,0000,c180
506,506,0,1,-16085,0000,c180
507,507,0,1,-16085,0000,c180
508,508,0,1,-16085,0000,c180
509,509,0,1,-16085,0000,c180
510,510,0,1,-16085,0000,c180
511,511,0,1,-16085,0000,c180
512,512,1,1,-16085,0000,c180
513,513,0,1,-16085,0000,c180
514,514,0,1,-16085,0000,c180
515,515,0,1,-16085,0000,c180
516,516,0,1,-16085,0000,c180
517,517,0,1,-16085,0000,c180
518,518,0,1,-16085,0000,c180
519,519,0,1,-16085,0000,c180
520,520,0,1,-16086,0000,c180
521,521,0,1,-16086,0000,c180
522,522,0,1,-16086,0000,c180
523,523,0,1,-16086,0000,c17f
524,524,0,1,-16086,0000,c17f
525,525,0,1,-16086,0000,c17f
526,526,0,1,-16086,0000,c17f
527,527,0,1,-16086,0000,c17f
528,528,0,1,-16086,0000,c17f
529,529,0,1,-16086,0000,c17f
530,530,0,1,-16086,0000,c17f
531,531,0,1,-16086,0000,c17f
532,532,0,1,-16086,0000,c17f
533,533,0,1,-16086,0000,c17f
534,534,0,1,-16086,0000,c17f
535,535,0,1,-16087,0000,c17e
536,536,0,1,-16087,0000,c17e
537,537,0,1,-16087,0000,c17e
538,538,0,1,-16087,0000,c17d
539,539,0,1,-16087,0000,c17d
540,540,0,1,-16087,0000,c17d
541,541,0,1,-16087,0000,c17d
542,542,0,1,-16087,0000,c17d
543,543,0,1,-16087,0000,c17d
544,544,0,1,-16087,0000,c17d
545,545,0,1,-16087,0000,c17d
546,546,0,1,-16087,0000,c17d
547,547,0,1,-16087,0000,c17d
548,548,0,1,-16087,0000,c17d
549,549,0,1,-16087,0000,c17d
550,550,0,1,-16088,0000,c17d
551,551,0,1,-16088,0000,c17d
552,552,0,1,-16088,0000,c17d
553,553,0,1,-16088,0000,c17d
554,554,0,1,-16088,0000,c17d
555,555,0,1,-16088,0000,c17d
556,556,0,1,-16088,0000,c17c
557,557,0,1,-16088,0000,c17c
558,558,0,1,-16088,0000,c17c
559,559,0,1,-16088,0000,c17c
560,560,0,1,-16088,0000,c17c
561,561,0,1,-16088,0000,c17c
562,562,0,1,-16088,0000,c17c
563,563,0,1,-16088,0000,c17c
564,564,0,1,-16088,0000,c17c
565,565,0,1,-16088,0000,c17c
566,566,0,1,-16088,0000,c17c
567,567,0,1,-16088,0000,c17c
568,568,0,1,-16089,0000,c17b
569,569,0,1,-16089,0000,c17b
570,570,0,1,-16089,0000,c17b
571,571,0,1,-16089,0000,c17a
572,572,0,1,-16089,0000,c17a
573,573,0,1,-16089,0000,c17a
574,574,0,1,-16089,0000,c17a
575,575,0,1,-16089,0000,c17a
576,576,0,1,-16089,0000,c17a
577,577,0,1,-16089,0000,c17a
578,578,0,1,-16089,0000,c17a
579,579,0,1,-16089,0000,c17a
580,580,0,1,-16089,0000,c17a
581,581,0,1,-16089,0000,c17a
582,582,0,1,-16089,0000,c17a
583,583,0,1,-16090,0000,c17a
584,584,0,1,-16090,0000,c17a
585,585,0,1,-16090,0000,c17a
586,586,0,1,-16090,0000,c179
587,587,0,1,-16090,0000,c179
588,588,0,1,-16090,0000,c179
589,589,0,1,-16090,0000,c179
590,590,0,1,-16090,0000,c179
591,591,0,1,-16090,0000,c179
592,592,0,1,-16090,0000,c179
593,593,0,1,-16090,0000,c179
594,594,0,1,-16090,0000,c179
595,595,0,1,-16090,0000,c179
596,596,0,1,-16090,0000,c179
597,597,0,1,-16090,0000,c179
598,598,0,1,-16091,0000,c178
599,599,0,1,-16091,0000,c178
600,600,0,1,-16091,0000,c178
601,601,0,1,-16091,0000,c178
602,602,0,1,-16091,0000,c178
603,603,0,1,-16091,0000,c178
604,604,0,1,-16091,0000,c177
605,605,0,1,-16091,0000,c177
606,606,0,1,-16091,0000,c177
607,607,0,1,-16091,0000,c177
608,608,0,1,-16091,0000,c177
609,609,0,1,-16091,0000,c177
610,610,0,1,-16091,0000,c177
611,611,0,1,-16091,0000,c177
612,612,0,1,-16091,0000,c177
613,613,0,1,-16091,0000,c177
614,614,0,1,-16091,0000,c177
615,615,0,1,-16091,0000,c177
616,616,0,1,-16092,0000,c177
617,617,0,1,-16092,0000,c177
618,618,0,1,-16092,0000,c177
619,619,0,1,-16092,0000,c176
620,620,0,1,-16092,0000,c176
621,621,0,1,-16092,0000,c176
622,622,0,1,-16092,0000,c176
623,623,0,1,-16092,0000,c176
624,624,0,1,-16092,0000,c176
625,625,0,1,-16092,0000,c176
626,626,0,1,-16092,0000,c176
627,627,0,1,-16092,0000,c176
628,628,0,1,-16092,0000,c176
629,629,0,1,-16092,0000,c176
630,630,0,1,-16092,0000,c176
631,631,0,1,-16093,0000,c175
632,632,0,1,-16093,0000,c175
633,633,0,1,-16093,0000,c175
634,634,0,1,-16093,0000,c174
635,635,0,1,-16093,0000,c174
636,636,0,1,-16093,0000,c174
637,637,0,1,-16093,0000,c174
638,638,0,1,-16093,0000,c174
639,639,0,1,-16093,0000,c174
640,640,0,1,-16093,0000,c174
641,641,0,1,-16093,0000,c174
642,642,0,1,-16093,0000,c174
643,643,0,1,-16093,0000,c174
644,644,0,1,-16093,0000,c174
645,645,0,1,-16093,0000,c174
646,646,0,1,-16094,0000,c174
647,647,0,1,-16094,0000,c174
648,648,0,1,-16094,0000,c174
649,649,0,1,-16094,0000,c174
650,650,0,1,-16094,0000,c174
651,651,0,1,-16094,0000,c174
652,652,0,1,-16094,0000,c173
653,653,0,1,-16094,0000,c173
654,654,0,1,-16094,0000,c173
655,655,0,1,-16094,0000,c173
656,656,0,1,-16094,0000,c173
657,657,0,1,-16094,0000,c173
658,658,0,1,-16094,0000,c173
659,659,0,1,-16094,0000,c173
660,660,0,1,-16094,0000,c173
661,661,0,1,-16094,0000,c173
662,662,0,1,-16094,0000,c173
663,663,0,1,-16094,0000,c173
664,664,0,1,-16095,0000,c172
665,665,0,1,-16095,0000,c172
666,666,0,1,-16095,0000,c172
667,667,0,1,-16095,0000,c171
668,668,0,1,-16095,0000,c171
669,669,0,1,-16095,0000,c171
670,670,0,1,-16095,0000,c171
671,671,0,1,-16095,0000,c171
672,672,0,1,-16095,0000,c171
673,673,0,1,-16095,0000,c171
674,674,0,1,-16095,0000,c171
675,675,0,1,-16095,0000,c171
676,676,0,1,-16095,0000,c171
677,677,0,1,-16095,0000,c171
678,678,0,1,-16095,0000,c171
679,679,0,1,-16096,0000,c171
680,680,0,1,-16096,0000,c171
681,681,0,1,-16096,0000,c171
682,682,0,1,-16096,0000,c170
683,683,0,1,-16096,0000,c170
684,684,0,1,-16096,0000,c170
685,685,0,1,-16096,0000,c170
686,686,0,1,-16096,0000,c170
687,687,0,1,-16096,0000,c170
