Sample in Buffer,Sample in Window,TRIGGER,design_1_i/system_ila_0/inst/probe0_1,design_1_i/system_ila_0/inst/probe1_1[15:0],design_1_i/system_ila_0/inst/probe2_1[15:0],design_1_i/system_ila_0/inst/probe3_1[15:0]
Radix - UNSIGNED,UNSIGNED,UNSIGNED,HEX,SIGNED,HEX,HEX
0,0,0,0,0,0000,0000
1,1,0,0,0,0000,0000
2,2,0,0,0,0000,0000
3,3,0,0,0,0000,0000
4,4,0,0,0,0000,0000
5,5,0,0,0,0000,0000
6,6,0,0,0,0000,0000
7,7,0,0,0,0000,0000
8,8,0,0,0,0000,0000
9,9,0,0,0,0000,0000
10,10,0,0,0,0000,0000
11,11,0,0,0,0000,0000
12,12,0,0,0,0000,0000
13,13,0,0,0,0000,0000
14,14,0,0,0,0000,0000
15,15,0,0,0,0000,0000
16,16,0,0,0,0000,0000
17,17,0,0,0,0000,0000
18,18,0,0,0,0000,0000
19,19,0,0,0,0000,0000
20,20,0,0,0,0000,0000
21,21,0,0,0,0000,0000
22,22,0,0,0,0000,0000
23,23,0,0,0,0000,0000
24,24,0,0,0,0000,0000
25,25,0,0,0,0000,0000
26,26,0,0,0,0000,0000
27,27,0,0,0,0000,0000
28,28,0,0,0,0000,0000
29,29,0,0,0,0000,0000
30,30,0,0,0,0000,0000
31,31,0,0,0,0000,0000
32,32,0,0,0,0000,0000
33,33,0,0,0,0000,0000
34,34,0,0,0,0000,0000
35,35,0,0,0,0000,0000
36,36,0,0,0,0000,0000
37,37,0,0,0,0000,0000
38,38,0,0,0,0000,0000
39,39,0,0,0,0000,0000
40,40,0,0,0,0000,0000
41,41,0,0,0,0000,0000
42,42,0,0,0,0000,0000
43,43,0,0,0,0000,0000
44,44,0,0,0,0000,0000
45,45,0,0,0,0000,0000
46,46,0,0,0,0000,0000
47,47,0,0,0,0000,0000
48,48,0,0,0,0000,0000
49,49,0,0,0,0000,0000
50,50,0,0,0,0000,0000
51,51,0,0,0,0000,0000
52,52,0,0,0,0000,0000
53,53,0,0,0,0000,0000
54,54,0,0,0,0000,0000
55,55,0,0,0,0000,0000
56,56,0,0,0,0000,0000
57,57,0,0,0,0000,0000
58,58,0,0,0,0000,0000
59,59,0,0,0,0000,0000
60,60,0,0,0,0000,0000
61,61,0,0,0,0000,0000
62,62,0,0,0,0000,0000
63,63,0,0,0,0000,0000
64,64,0,0,0,0000,0000
65,65,0,0,0,0000,0000
66,66,0,0,0,0000,0000
67,67,0,0,0,0000,0000
68,68,0,0,0,0000,0000
69,69,0,0,0,0000,0000
70,70,0,0,0,0000,0000
71,71,0,0,0,0000,0000
72,72,0,0,0,0000,0000
73,73,0,0,0,0000,0000
74,74,0,0,0,0000,0000
75,75,0,0,0,0000,0000
76,76,0,0,0,0000,0000
77,77,0,0,0,0000,0000
78,78,0,0,0,0000,0000
79,79,0,0,0,0000,0000
80,80,0,0,0,0000,0000
81,81,0,0,0,0000,0000
82,82,0,0,0,0000,0000
83,83,0,0,0,0000,0000
84,84,0,0,0,0000,0000
85,85,0,0,0,0000,0000
86,86,0,0,0,0000,0000
87,87,0,0,0,0000,0000
88,88,0,0,0,0000,0000
89,89,0,0,0,0000,0000
90,90,0,0,0,0000,0000
91,91,0,0,0,0000,0000
92,92,0,0,0,0000,0000
93,93,0,0,0,0000,0000
94,94,0,0,0,0000,0000
95,95,0,0,0,0000,0000
96,96,0,0,0,0000,0000
97,97,0,0,0,0000,0000
98,98,0,0,0,0000,0000
99,99,0,0,0,0000,0000
100,100,0,0,0,0000,0000
101,101,0,0,0,0000,0000
102,102,0,0,0,0000,0000
103,103,0,0,0,0000,0000
104,104,0,0,0,0000,0000
105,105,0,0,0,0000,0000
106,106,0,0,0,0000,0000
107,107,0,0,0,0000,0000
108,108,0,0,0,0000,0000
109,109,0,0,0,0000,0000
110,110,0,0,0,0000,0000
111,111,0,0,0,0000,0000
112,112,0,0,0,0000,0000
113,113,0,0,0,0000,0000
114,114,0,0,0,0000,0000
115,115,0,0,0,0000,0000
116,116,0,0,0,0000,0000
117,117,0,0,0,0000,0000
118,118,0,0,0,0000,0000
119,119,0,0,0,0000,0000
120,120,0,0,0,0000,0000
121,121,0,0,0,0000,0000
122,122,0,0,0,0000,0000
123,123,0,0,0,0000,0000
124,124,0,0,0,0000,0000
125,125,0,0,0,0000,0000
126,126,0,0,0,0000,0000
127,127,0,0,0,0000,0000
128,128,0,0,0,0000,0000
129,129,0,0,0,0000,0000
130,130,0,0,0,0000,0000
131,131,0,0,0,0000,0000
132,132,0,0,0,0000,0000
133,133,0,0,0,0000,0000
134,134,0,0,0,0000,0000
135,135,0,0,0,0000,0000
136,136,0,0,0,0000,0000
137,137,0,0,0,0000,0000
138,138,0,0,0,0000,0000
139,139,0,0,0,0000,0000
140,140,0,0,0,0000,0000
141,141,0,0,0,0000,0000
142,142,0,0,0,0000,0000
143,143,0,0,0,0000,0000
144,144,0,0,0,0000,0000
145,145,0,0,0,0000,0000
146,146,0,0,0,0000,0000
147,147,0,0,0,0000,0000
148,148,0,0,0,0000,0000
149,149,0,0,0,0000,0000
150,150,0,0,0,0000,0000
151,151,0,0,0,0000,0000
152,152,0,0,0,0000,0000
153,153,0,0,0,0000,0000
154,154,0,0,0,0000,0000
155,155,0,0,0,0000,0000
156,156,0,0,0,0000,0000
157,157,0,0,0,0000,0000
158,158,0,0,0,0000,0000
159,159,0,0,0,0000,0000
160,160,0,0,0,0000,0000
161,161,0,0,0,0000,0000
162,162,0,0,0,0000,0000
163,163,0,0,0,0000,0000
164,164,0,0,0,0000,0000
165,165,0,0,0,0000,0000
166,166,0,0,0,0000,0000
167,167,0,0,0,0000,0000
168,168,0,0,0,0000,0000
169,169,0,0,0,0000,0000
170,170,0,0,0,0000,0000
171,171,0,0,0,0000,0000
172,172,0,0,0,0000,0000
173,173,0,0,0,0000,0000
174,174,0,0,0,0000,0000
175,175,0,0,0,0000,0000
176,176,0,0,0,0000,0000
177,177,0,0,0,0000,0000
178,178,0,0,0,0000,0000
179,179,0,0,0,0000,0000
180,180,0,0,0,0000,0000
181,181,0,0,0,0000,0000
182,182,0,0,0,0000,0000
183,183,0,0,0,0000,0000
184,184,0,0,0,0000,0000
185,185,0,0,0,0000,0000
186,186,0,0,0,0000,0000
187,187,0,0,0,0000,0000
188,188,0,0,0,0000,0000
189,189,0,0,0,0000,0000
190,190,0,0,0,0000,0000
191,191,0,0,0,0000,0000
192,192,0,0,0,0000,0000
193,193,0,0,0,0000,0000
194,194,0,0,0,0000,0000
195,195,0,0,0,0000,0000
196,196,0,0,0,0000,0000
197,197,0,0,0,0000,0000
198,198,0,0,0,0000,0000
199,199,0,0,0,0000,0000
200,200,0,0,0,0000,0000
201,201,0,0,0,0000,0000
202,202,0,0,0,0000,0000
203,203,0,0,0,0000,0000
204,204,0,0,0,0000,0000
205,205,0,0,0,0000,0000
206,206,0,0,0,0000,0000
207,207,0,0,0,0000,0000
208,208,0,0,0,0000,0000
209,209,0,0,0,0000,0000
210,210,0,0,0,0000,0000
211,211,0,0,0,0000,0000
212,212,0,0,0,0000,0000
213,213,0,0,0,0000,0000
214,214,0,0,0,0000,0000
215,215,0,0,0,0000,0000
216,216,0,0,0,0000,0000
217,217,0,0,0,0000,0000
218,218,0,0,0,0000,0000
219,219,0,0,0,0000,0000
220,220,0,0,0,0000,0000
221,221,0,0,0,0000,0000
222,222,0,0,0,0000,0000
223,223,0,0,0,0000,0000
224,224,0,0,0,0000,0000
225,225,0,0,0,0000,0000
226,226,0,0,0,0000,0000
227,227,0,0,0,0000,0000
228,228,0,0,0,0000,0000
229,229,0,0,0,0000,0000
230,230,0,0,0,0000,0000
231,231,0,0,0,0000,0000
232,232,0,0,0,0000,0000
233,233,0,0,0,0000,0000
234,234,0,0,0,0000,0000
235,235,0,0,0,0000,0000
236,236,0,0,0,0000,0000
237,237,0,0,0,0000,0000
238,238,0,0,0,0000,0000
239,239,0,0,0,0000,0000
240,240,0,0,0,0000,0000
241,241,0,0,0,0000,0000
242,242,0,0,0,0000,0000
243,243,0,0,0,0000,0000
244,244,0,0,0,0000,0000
245,245,0,0,0,0000,0000
246,246,0,0,0,0000,0000
247,247,0,0,0,0000,0000
248,248,0,0,0,0000,0000
249,249,0,0,0,0000,0000
250,250,0,0,0,0000,0000
251,251,0,0,0,0000,0000
252,252,0,0,0,0000,0000
253,253,0,0,0,0000,0000
254,254,0,0,0,0000,0000
255,255,0,0,0,0000,0000
256,256,0,0,0,0000,0000
257,257,0,0,0,0000,0000
258,258,0,0,0,0000,0000
259,259,0,0,0,0000,0000
260,260,0,0,0,0000,0000
261,261,0,0,0,0000,0000
262,262,0,0,0,0000,0000
263,263,0,0,0,0000,0000
264,264,0,0,0,0000,0000
265,265,0,0,0,0000,0000
266,266,0,0,0,0000,0000
267,267,0,0,0,0000,0000
268,268,0,0,0,0000,0000
269,269,0,0,0,0000,0000
270,270,0,0,0,0000,0000
271,271,0,0,0,0000,0000
272,272,0,0,0,0000,0000
273,273,0,0,0,0000,0000
274,274,0,0,0,0000,0000
275,275,0,0,0,0000,0000
276,276,0,0,0,0000,0000
277,277,0,0,0,0000,0000
278,278,0,0,0,0000,0000
279,279,0,0,0,0000,0000
280,280,0,0,0,0000,0000
281,281,0,0,0,0000,0000
282,282,0,0,0,0000,0000
283,283,0,0,0,0000,0000
284,284,0,0,0,0000,0000
285,285,0,0,0,0000,0000
286,286,0,0,0,0000,0000
287,287,0,0,0,0000,0000
288,288,0,0,0,0000,0000
289,289,0,0,0,0000,0000
290,290,0,0,0,0000,0000
291,291,0,0,0,0000,0000
292,292,0,0,0,0000,0000
293,293,0,0,0,0000,0000
294,294,0,0,0,0000,0000
295,295,0,0,0,0000,0000
296,296,0,0,0,0000,0000
297,297,0,0,0,0000,0000
298,298,0,0,0,0000,0000
299,299,0,0,0,0000,0000
300,300,0,0,0,0000,0000
301,301,0,0,0,0000,0000
302,302,0,0,0,0000,0000
303,303,0,0,0,0000,0000
304,304,0,0,0,0000,0000
305,305,0,0,0,0000,0000
306,306,0,0,0,0000,0000
307,307,0,0,0,0000,0000
308,308,0,0,0,0000,0000
309,309,0,0,0,0000,0000
310,310,0,0,0,0000,0000
311,311,0,0,0,0000,0000
312,312,0,0,0,0000,0000
313,313,0,0,0,0000,0000
314,314,0,0,0,0000,0000
315,315,0,0,0,0000,0000
316,316,0,0,0,0000,0000
317,317,0,0,0,0000,0000
318,318,0,0,0,0000,0000
319,319,0,0,0,0000,0000
320,320,0,0,0,0000,0000
321,321,0,0,0,0000,0000
322,322,0,0,0,0000,0000
323,323,0,0,0,0000,0000
324,324,0,0,0,0000,0000
325,325,0,0,0,0000,0000
326,326,0,0,0,0000,0000
327,327,0,0,0,0000,0000
328,328,0,0,0,0000,0000
329,329,0,0,0,0000,0000
330,330,0,0,0,0000,0000
331,331,0,0,0,0000,0000
332,332,0,0,0,0000,0000
333,333,0,0,0,0000,0000
334,334,0,0,0,0000,0000
335,335,0,0,0,0000,0000
336,336,0,0,0,0000,0000
337,337,0,0,0,0000,0000
338,338,0,0,0,0000,0000
339,339,0,0,0,0000,0000
340,340,0,0,0,0000,0000
341,341,0,0,0,0000,0000
342,342,0,0,0,0000,0000
343,343,0,0,0,0000,0000
344,344,0,0,0,0000,0000
345,345,0,0,0,0000,0000
346,346,0,0,0,0000,0000
347,347,0,0,0,0000,0000
348,348,0,0,0,0000,0000
349,349,0,0,0,0000,0000
350,350,0,0,0,0000,0000
351,351,0,0,0,0000,0000
352,352,0,0,0,0000,0000
353,353,0,0,0,0000,0000
354,354,0,0,0,0000,0000
355,355,0,0,0,0000,0000
356,356,0,0,0,0000,0000
357,357,0,0,0,0000,0000
358,358,0,0,0,0000,0000
359,359,0,0,0,0000,0000
360,360,0,0,0,0000,0000
361,361,0,0,0,0000,0000
362,362,0,0,0,0000,0000
363,363,0,0,0,0000,0000
364,364,0,0,0,0000,0000
365,365,0,0,0,0000,0000
366,366,0,0,0,0000,0000
367,367,0,0,0,0000,0000
368,368,0,0,0,0000,0000
369,369,0,0,0,0000,0000
370,370,0,0,0,0000,0000
371,371,0,0,0,0000,0000
372,372,0,0,0,0000,0000
373,373,0,0,0,0000,0000
374,374,0,0,0,0000,0000
375,375,0,0,0,0000,0000
376,376,0,0,0,0000,0000
377,377,0,0,0,0000,0000
378,378,0,0,0,0000,0000
379,379,0,0,0,0000,0000
380,380,0,0,0,0000,0000
381,381,0,0,0,0000,0000
382,382,0,0,0,0000,0000
383,383,0,0,0,0000,0000
384,384,0,0,0,0000,0000
385,385,0,0,0,0000,0000
386,386,0,0,0,0000,0000
387,387,0,0,0,0000,0000
388,388,0,0,0,0000,0000
389,389,0,0,0,0000,0000
390,390,0,0,0,0000,0000
391,391,0,0,0,0000,0000
392,392,0,0,0,0000,0000
393,393,0,0,0,0000,0000
394,394,0,0,0,0000,0000
395,395,0,0,0,0000,0000
396,396,0,0,0,0000,0000
397,397,0,0,0,0000,0000
398,398,0,0,0,0000,0000
399,399,0,0,0,0000,0000
400,400,0,0,0,0000,0000
401,401,0,0,0,0000,0000
402,402,0,0,0,0000,0000
403,403,0,0,0,0000,0000
404,404,0,0,0,0000,0000
405,405,0,0,0,0000,0000
406,406,0,0,0,0000,0000
407,407,0,0,0,0000,0000
408,408,0,0,0,0000,0000
409,409,0,0,0,0000,0000
410,410,0,0,0,0000,0000
411,411,0,0,0,0000,0000
412,412,0,0,0,0000,0000
413,413,0,0,0,0000,0000
414,414,0,0,0,0000,0000
415,415,0,0,0,0000,0000
416,416,0,0,0,0000,0000
417,417,0,0,0,0000,0000
418,418,0,0,0,0000,0000
419,419,0,0,0,0000,0000
420,420,0,0,0,0000,0000
421,421,0,0,0,0000,0000
422,422,0,0,0,0000,0000
423,423,0,0,0,0000,0000
424,424,0,0,0,0000,0000
425,425,0,0,0,0000,0000
426,426,0,0,0,0000,0000
427,427,0,0,0,0000,0000
428,428,0,0,0,0000,0000
429,429,0,0,0,0000,0000
430,430,0,0,0,0000,0000
431,431,0,0,0,0000,0000
432,432,0,0,0,0000,0000
433,433,0,0,0,0000,0000
434,434,0,0,0,0000,0000
435,435,0,0,0,0000,0000
436,436,0,0,0,0000,0000
437,437,0,0,0,0000,0000
438,438,0,0,0,0000,0000
439,439,0,0,0,0000,0000
440,440,0,0,0,0000,0000
441,441,0,0,0,0000,0000
442,442,0,0,0,0000,0000
443,443,0,0,0,0000,0000
444,444,0,0,0,0000,0000
445,445,0,0,0,0000,0000
446,446,0,0,0,0000,0000
447,447,0,0,0,0000,0000
448,448,0,0,0,0000,0000
449,449,0,0,0,0000,0000
450,450,0,0,0,0000,0000
451,451,0,0,0,0000,0000
452,452,0,0,0,0000,0000
453,453,0,0,0,0000,0000
454,454,0,0,0,0000,0000
455,455,0,0,0,0000,0000
456,456,0,0,0,0000,0000
457,457,0,0,0,0000,0000
458,458,0,0,0,0000,0000
459,459,0,0,0,0000,0000
460,460,0,0,0,0000,0000
461,461,0,0,0,0000,0000
462,462,0,0,0,0000,0000
463,463,0,0,0,0000,0000
464,464,0,0,0,0000,0000
465,465,0,0,0,0000,0000
466,466,0,0,0,0000,0000
467,467,0,0,0,0000,0000
468,468,0,0,0,0000,0000
469,469,0,0,0,0000,0000
470,470,0,0,0,0000,0000
471,471,0,0,0,0000,0000
472,472,0,0,0,0000,0000
473,473,0,0,0,0000,0000
474,474,0,0,0,0000,0000
475,475,0,0,0,0000,0000
476,476,0,0,0,0000,0000
477,477,0,0,0,0000,0000
478,478,0,0,0,0000,0000
479,479,0,0,0,0000,0000
480,480,0,0,0,0000,0000
481,481,0,0,0,0000,0000
482,482,0,0,0,0000,0000
483,483,0,0,0,0000,0000
484,484,0,0,0,0000,0000
485,485,0,0,0,0000,0000
486,486,0,0,0,0000,0000
487,487,0,0,0,0000,0000
488,488,0,0,0,0000,0000
489,489,0,0,0,0000,0000
490,490,0,0,0,0000,0000
491,491,0,0,0,0000,0000
492,492,0,0,0,0000,0000
493,493,0,0,0,0000,0000
494,494,0,0,0,0000,0000
495,495,0,0,0,0000,0000
496,496,0,0,0,0000,0000
497,497,0,0,0,0000,0000
498,498,0,0,0,0000,0000
499,499,0,0,0,0000,0000
500,500,0,0,0,0000,0000
501,501,0,0,0,0000,0000
502,502,0,0,0,0000,0000
503,503,0,0,0,0000,0000
504,504,0,0,0,0000,0000
505,505,0,0,0,0000,0000
506,506,0,0,0,0000,0000
507,507,0,0,0,0000,0000
508,508,0,0,0,0000,0000
509,509,0,0,0,0000,0000
510,510,0,0,0,0000,0000
511,511,0,0,0,0000,0000
512,512,1,1,0,0000,0000
513,513,0,1,0,0000,0000
514,514,0,1,0,0000,0000
515,515,0,1,0,0000,0000
516,516,0,1,0,0000,0000
517,517,0,1,0,0000,0000
518,518,0,1,0,0000,0000
519,519,0,1,0,0000,0000
520,520,0,1,0,0000,0000
521,521,0,1,-255,0000,05f3
522,522,0,1,-255,0000,05f3
523,523,0,1,-255,0000,05f3
524,524,0,1,-255,0bf6,0aef
525,525,0,1,-255,0bf6,0aef
526,526,0,1,-255,0bf6,0aef
527,527,0,1,3053,0af7,0aef
528,528,0,1,3053,0af7,0aef
529,529,0,1,3053,0af7,0aef
530,530,0,1,3053,0af7,0aef
531,531,0,1,3053,0af7,0aef
532,532,0,1,3053,0af7,0aef
533,533,0,1,3053,0af7,0aef
534,534,0,1,3053,0af7,0aef
535,535,0,1,3053,0af7,0aef
536,536,0,1,2798,0af7,09f0
537,537,0,1,2798,0af7,09f0
538,538,0,1,2798,0af7,09f0
539,539,0,1,2798,08fb,07f3
540,540,0,1,2798,08fb,07f3
541,541,0,1,2798,08fb,07f3
542,542,0,1,2543,07fc,07f3
543,543,0,1,2543,07fc,07f3
544,544,0,1,2543,07fc,07f3
545,545,0,1,2543,07fc,07f3
546,546,0,1,2543,07fc,07f3
547,547,0,1,2543,07fc,07f3
548,548,0,1,2543,07fc,07f3
549,549,0,1,2543,07fc,07f3
550,550,0,1,2543,07fc,07f3
551,551,0,1,2543,07fc,07f3
552,552,0,1,2543,07fc,07f3
553,553,0,1,2543,07fc,07f3
554,554,0,1,2288,06fe,04f7
555,555,0,1,2288,06fe,04f7
556,556,0,1,2288,06fe,04f7
557,557,0,1,2033,0501,04f7
558,558,0,1,2033,0501,04f7
559,559,0,1,2033,0501,04f7
560,560,0,1,2033,0501,04f7
561,561,0,1,2033,0501,04f7
562,562,0,1,2033,0501,04f7
563,563,0,1,2033,0501,04f7
564,564,0,1,2033,0501,04f7
565,565,0,1,2033,0501,04f7
566,566,0,1,2033,0501,04f7
567,567,0,1,2033,0501,04f7
568,568,0,1,2033,0501,04f7
569,569,0,1,1778,0501,02fa
570,570,0,1,1778,0501,02fa
571,571,0,1,1778,0501,02fa
572,572,0,1,1778,0206,01fb
573,573,0,1,1778,0206,01fb
574,574,0,1,1778,0206,01fb
575,575,0,1,1523,0206,01fb
576,576,0,1,1523,0206,01fb
577,577,0,1,1523,0206,01fb
578,578,0,1,1523,0206,01fb
579,579,0,1,1523,0206,01fb
580,580,0,1,1523,0206,01fb
581,581,0,1,1523,0206,01fb
582,582,0,1,1523,0206,01fb
583,583,0,1,1523,0206,01fb
584,584,0,1,1268,0206,00fc
585,585,0,1,1268,0206,00fc
586,586,0,1,1268,0206,00fc
587,587,0,1,1268,000a,feff
588,588,0,1,1268,000a,feff
589,589,0,1,1268,000a,feff
590,590,0,1,1013,ff0b,feff
591,591,0,1,1013,ff0b,feff
592,592,0,1,1013,ff0b,feff
593,593,0,1,1013,ff0b,feff
594,594,0,1,1013,ff0b,feff
595,595,0,1,1013,ff0b,feff
596,596,0,1,1013,ff0b,feff
597,597,0,1,1013,ff0b,feff
598,598,0,1,1013,ff0b,feff
599,599,0,1,1013,ff0b,feff
600,600,0,1,1013,ff0b,feff
601,601,0,1,1013,ff0b,feff
602,602,0,1,758,fe0d,fc03
603,603,0,1,758,fe0d,fc03
604,604,0,1,758,fe0d,fc03
605,605,0,1,503,fc10,fc03
606,606,0,1,503,fc10,fc03
607,607,0,1,503,fc10,fc03
608,608,0,1,503,fc10,fc03
609,609,0,1,503,fc10,fc03
610,610,0,1,503,fc10,fc03
611,611,0,1,503,fc10,fc03
612,612,0,1,503,fc10,fc03
613,613,0,1,503,fc10,fc03
614,614,0,1,503,fc10,fc03
615,615,0,1,503,fc10,fc03
616,616,0,1,503,fc10,fc03
617,617,0,1,248,fc10,fa06
618,618,0,1,248,fc10,fa06
619,619,0,1,248,fc10,fa06
620,620,0,1,248,f915,f907
621,621,0,1,248,f915,f907
622,622,0,1,248,f915,f907
623,623,0,1,-7,f915,f907
624,624,0,1,-7,f915,f907
625,625,0,1,-7,f915,f907
626,626,0,1,-7,f915,f907
627,627,0,1,-7,f915,f907
628,628,0,1,-7,f915,f907
629,629,0,1,-7,f915,f907
630,630,0,1,-7,f915,f907
631,631,0,1,-7,f915,f907
632,632,0,1,-262,f915,f808
633,633,0,1,-262,f915,f808
634,634,0,1,-262,f915,f808
635,635,0,1,-262,f719,f60b
636,636,0,1,-262,f719,f60b
637,637,0,1,-262,f719,f60b
638,638,0,1,-517,f61a,f60b
639,639,0,1,-517,f61a,f60b
640,640,0,1,-517,f61a,f60b
641,641,0,1,-517,f61a,f60b
642,642,0,1,-517,f61a,f60b
643,643,0,1,-517,f61a,f60b
644,644,0,1,-517,f61a,f60b
645,645,0,1,-517,f61a,f60b
646,646,0,1,-517,f61a,f60b
647,647,0,1,-517,f61a,f60b
648,648,0,1,-517,f61a,f60b
649,649,0,1,-517,f61a,f60b
650,650,0,1,-772,f51c,f30f
651,651,0,1,-772,f51c,f30f
652,652,0,1,-772,f51c,f30f
653,653,0,1,-1027,f31f,f30f
654,654,0,1,-1027,f31f,f30f
655,655,0,1,-1027,f31f,f30f
656,656,0,1,-1027,f31f,f30f
657,657,0,1,-1027,f31f,f30f
658,658,0,1,-1027,f31f,f30f
659,659,0,1,-1027,f31f,f30f
660,660,0,1,-1027,f31f,f30f
661,661,0,1,-1027,f31f,f30f
662,662,0,1,-1027,f31f,f30f
663,663,0,1,-1027,f31f,f30f
664,664,0,1,-1027,f31f,f30f
665,665,0,1,-1282,f31f,f112
666,666,0,1,-1282,f31f,f112
667,667,0,1,-1282,f31f,f112
668,668,0,1,-1282,f024,f013
669,669,0,1,-1282,f024,f013
670,670,0,1,-1282,f024,f013
671,671,0,1,-1537,f024,f013
672,672,0,1,-1537,f024,f013
673,673,0,1,-1537,f024,f013
674,674,0,1,-1537,f024,f013
675,675,0,1,-1537,f024,f013
676,676,0,1,-1537,f024,f013
677,677,0,1,-1537,f024,f013
678,678,0,1,-1537,f024,f013
679,679,0,1,-1537,f024,f013
680,680,0,1,-1792,f024,ef14
681,681,0,1,-1792,f024,ef14
682,682,0,1,-1792,f024,ef14
683,683,0,1,-1792,ee28,ed17
684,684,0,1,-1792,ee28,ed17
685,685,0,1,-1792,ee28,ed17
686,686,0,1,-2047,ed29,ed17
687,687,0,1,-2047,ed29,ed17
688,688,0,1,-2047,ed29,ed17
689,689,0,1,-2047,ed29,ed17
690,690,0,1,-2047,ed29,ed17
691,691,0,1,-2047,ed29,ed17
692,692,0,1,-2047,ed29,ed17
693,693,0,1,-2047,ed29,ed17
694,694,0,1,-2047,ed29,ed17
695,695,0,1,-2047,ed29,ed17
696,696,0,1,-2047,ed29,ed17
697,697,0,1,-2047,ed29,ed17
698,698,0,1,-2302,ec2b,ea1b
699,699,0,1,-2302,ec2b,ea1b
700,700,0,1,-2302,ec2b,ea1b
701,701,0,1,-2557,ea2e,ea1b
702,702,0,1,-2557,ea2e,ea1b
703,703,0,1,-2557,ea2e,ea1b
704,704,0,1,-2557,ea2e,ea1b
705,705,0,1,-2557,ea2e,ea1b
706,706,0,1,-2557,ea2e,ea1b
707,707,0,1,-2557,ea2e,ea1b
708,708,0,1,-2557,ea2e,ea1b
709,709,0,1,-2557,ea2e,ea1b
710,710,0,1,-2557,ea2e,ea1b
711,711,0,1,-2557,ea2e,ea1b
712,712,0,1,-2557,ea2e,ea1b
713,713,0,1,-2812,ea2e,e81e
714,714,0,1,-2812,ea2e,e81e
715,715,0,1,-2812,ea2e,e81e
716,716,0,1,-2812,e733,e71f
717,717,0,1,-2812,e733,e71f
718,718,0,1,-2812,e733,e71f
719,719,0,1,-3067,e733,e71f
720,720,0,1,-3067,e733,e71f
721,721,0,1,-3067,e733,e71f
722,722,0,1,-3067,e733,e71f
723,723,0,1,-3067,e733,e71f
724,724,0,1,-3067,e733,e71f
725,725,0,1,-3067,e733,e71f
726,726,0,1,-3067,e733,e71f
727,727,0,1,-3067,e733,e71f
728,728,0,1,-3322,e733,e620
729,729,0,1,-3322,e733,e620
730,730,0,1,-3322,e733,e620
731,731,0,1,-3322,e537,e423
732,732,0,1,-3322,e537,e423
733,733,0,1,-3322,e537,e423
734,734,0,1,-3577,e438,e423
735,735,0,1,-3577,e438,e423
736,736,0,1,-3577,e438,e423
737,737,0,1,-3577,e438,e423
738,738,0,1,-3577,e438,e423
739,739,0,1,-3577,e438,e423
740,740,0,1,-3577,e438,e423
741,741,0,1,-3577,e438,e423
742,742,0,1,-3577,e438,e423
743,743,0,1,-3577,e438,e423
744,744,0,1,-3577,e438,e423
745,745,0,1,-3577,e438,e423
746,746,0,1,-3832,e33a,e127
747,747,0,1,-3832,e33a,e127
748,748,0,1,-3832,e33a,e127
749,749,0,1,-4087,e13d,e127
750,750,0,1,-4087,e13d,e127
751,751,0,1,-4087,e13d,e127
752,752,0,1,-4087,e13d,e127
753,753,0,1,-4087,e13d,e127
754,754,0,1,-4087,e13d,e127
755,755,0,1,-4087,e13d,e127
756,756,0,1,-4087,e13d,e127
757,757,0,1,-4087,e13d,e127
758,758,0,1,-4087,e13d,e127
759,759,0,1,-4087,e13d,e127
760,760,0,1,-4087,e13d,e127
761,761,0,1,-4342,e13d,df2a
762,762,0,1,-4342,e13d,df2a
763,763,0,1,-4342,e13d,df2a
764,764,0,1,-4342,de42,de2b
765,765,0,1,-4342,de42,de2b
766,766,0,1,-4342,de42,de2b
767,767,0,1,-4597,de42,de2b
768,768,0,1,-4597,de42,de2b
769,769,0,1,-4597,de42,de2b
770,770,0,1,-4597,de42,de2b
771,771,0,1,-4597,de42,de2b
772,772,0,1,-4597,de42,de2b
773,773,0,1,-4597,de42,de2b
774,774,0,1,-4597,de42,de2b
775,775,0,1,-4597,de42,de2b
776,776,0,1,-4852,de42,dd2c
777,777,0,1,-4852,de42,dd2c
778,778,0,1,-4852,de42,dd2c
779,779,0,1,-4852,dc46,db2f
780,780,0,1,-4852,dc46,db2f
781,781,0,1,-4852,dc46,db2f
782,782,0,1,-5107,db47,db2f
783,783,0,1,-5107,db47,db2f
784,784,0,1,-5107,db47,db2f
785,785,0,1,-5107,db47,db2f
786,786,0,1,-5107,db47,db2f
787,787,0,1,-5107,db47,db2f
788,788,0,1,-5107,db47,db2f
789,789,0,1,-5107,db47,db2f
790,790,0,1,-5107,db47,db2f
791,791,0,1,-5107,db47,db2f
792,792,0,1,-5107,db47,db2f
